time	V(triangle)	V(vin)
0.000000000000000e+000	2.598770e-001	-1.000000e+000
1.464843750000056e-006	2.625836e-001	-1.000000e+000
4.394531250000167e-006	2.679833e-001	-1.000000e+000
1.525390625000019e-005	2.878736e-001	-1.000000e+000
1.999999999999919e-005	2.977121e-001	-9.935637e-001
2.003240103267204e-005	2.985454e-001	-9.870396e-001
2.009720309801601e-005	3.008325e-001	-9.611188e-001
2.012867191277488e-005	3.010794e-001	-9.485312e-001
2.015433559269739e-005	3.009415e-001	-9.382657e-001
2.018835485938231e-005	3.007242e-001	-9.246581e-001
2.025345587387123e-005	3.002671e-001	-8.986176e-001
2.030736893689732e-005	3.000633e-001	-8.770524e-001
2.037096038429165e-005	3.000718e-001	-8.516158e-001
2.049014607641113e-005	3.003313e-001	-8.039415e-001
2.079605190037463e-005	3.010780e-001	-6.815792e-001
2.100488231917240e-005	3.015255e-001	-5.980471e-001
2.126395695775663e-005	3.019395e-001	-4.944172e-001
2.158263643762919e-005	3.021433e-001	-3.669454e-001
2.188831735295757e-005	3.022306e-001	-2.446731e-001
2.219168564308698e-005	3.022538e-001	-1.233257e-001
2.279842222334752e-005	3.020291e-001	1.193689e-001
2.343619290273193e-005	3.014017e-001	3.744771e-001
2.424488574971108e-005	2.997451e-001	6.979543e-001
2.500000000000072e-005	2.973819e-001	1.000000e+000
2.500613545619937e-005	2.966800e-001	1.000000e+000
2.501840636859841e-005	2.954849e-001	1.000000e+000
2.503563077836321e-005	2.943700e-001	1.000000e+000
2.505368976044899e-005	2.937967e-001	1.000000e+000
2.506940696931151e-005	2.935625e-001	1.000000e+000
2.509131836571366e-005	2.933433e-001	1.000000e+000
2.511713633604300e-005	2.932668e-001	1.000000e+000
2.515410512197655e-005	2.934549e-001	1.000000e+000
2.518894038351822e-005	2.937220e-001	1.000000e+000
2.523382264832223e-005	2.939916e-001	1.000000e+000
2.531680643273054e-005	2.941654e-001	1.000000e+000
2.548277400154543e-005	2.939133e-001	1.000000e+000
2.573870455865532e-005	2.932062e-001	1.000000e+000
2.667834068956705e-005	2.909221e-001	1.000000e+000
2.761797682047879e-005	2.886391e-001	1.000000e+000
2.855761295139053e-005	2.863573e-001	1.000000e+000
2.949724908230226e-005	2.840765e-001	1.000000e+000
3.043688521321400e-005	2.817969e-001	1.000000e+000
3.137652134412573e-005	2.795184e-001	1.000000e+000
3.231615747503747e-005	2.772410e-001	1.000000e+000
6.619553608014882e-005	1.967481e-001	1.000000e+000
9.549241108014993e-005	1.293388e-001	1.000000e+000
1.101408485801505e-004	9.641389e-002	1.000000e+000
1.247892860801510e-004	6.399807e-002	1.000000e+000
1.394377235801516e-004	3.208347e-002	1.000000e+000
1.540861610801522e-004	6.623507e-004	1.000000e+000
1.687345985801527e-004	-3.027292e-002	1.000000e+000
1.833830360801533e-004	-6.072985e-002	1.000000e+000
1.980314735801538e-004	-9.071583e-002	1.000000e+000
2.273283485801549e-004	-1.493040e-001	1.000000e+000
2.712736610801566e-004	-2.338326e-001	1.000000e+000
2.801972855061838e-004	-2.505248e-001	1.000000e+000
2.891209099322110e-004	-2.670647e-001	1.000000e+000
2.980445343582382e-004	-2.834524e-001	1.000000e+000
3.069681587842655e-004	-2.996878e-001	1.000000e+000
3.158917832102927e-004	-3.157709e-001	1.000000e+000
3.248154076363199e-004	-3.317017e-001	1.000000e+000
3.337390320623471e-004	-3.474803e-001	1.000000e+000
3.370000000000005e-004	-3.532085e-001	1.000000e+000
3.370220380599712e-004	-3.549524e-001	9.911848e-001
3.370661141799142e-004	-3.571227e-001	9.735543e-001
3.370985553542948e-004	-3.576914e-001	9.605778e-001
3.371198727993088e-004	-3.577188e-001	9.520509e-001
3.371512117829028e-004	-3.576232e-001	9.395153e-001
3.372020686100499e-004	-3.572534e-001	9.191726e-001
3.372509491233067e-004	-3.569185e-001	8.996204e-001
3.373004819482491e-004	-3.567607e-001	8.798072e-001
3.373880769319652e-004	-3.567714e-001	8.447692e-001
3.374783307083604e-004	-3.569686e-001	8.086677e-001
3.376988096210291e-004	-3.575194e-001	7.204762e-001
3.379355806078718e-004	-3.580055e-001	6.257678e-001
3.383517660696233e-004	-3.586031e-001	4.592936e-001
3.386764870631515e-004	-3.587658e-001	3.294052e-001
3.389451754506143e-004	-3.588264e-001	2.219298e-001
3.392231070404161e-004	-3.588433e-001	1.107572e-001
3.395138047148430e-004	-3.587523e-001	-5.521886e-003
3.399282773568681e-004	-3.584837e-001	-1.713109e-001
3.407319936987556e-004	-3.574147e-001	-4.927975e-001
3.413192397819786e-004	-3.560301e-001	-7.276959e-001
3.413792918148285e-004	-3.558529e-001	-7.517167e-001
3.414993958805283e-004	-3.555311e-001	-7.997584e-001
3.417450067943646e-004	-3.548739e-001	-8.980027e-001
3.420000000000003e-004	-3.540995e-001	-1.000000e+000
3.420026268496149e-004	-3.537517e-001	-1.000000e+000
3.420078805488440e-004	-3.530808e-001	-1.000000e+000
3.420183879473005e-004	-3.519386e-001	-1.000000e+000
3.420319693630772e-004	-3.509565e-001	-1.000000e+000
3.420516692363897e-004	-3.502383e-001	-1.000000e+000
3.420671313792822e-004	-3.499487e-001	-1.000000e+000
3.420878764930149e-004	-3.496824e-001	-1.000000e+000
3.421114950449000e-004	-3.495557e-001	-1.000000e+000
3.421467058173158e-004	-3.496996e-001	-1.000000e+000
3.421792547862526e-004	-3.499593e-001	-1.000000e+000
3.422223348800400e-004	-3.502726e-001	-1.000000e+000
3.422867526879821e-004	-3.505132e-001	-1.000000e+000
3.424155883038661e-004	-3.504594e-001	-1.000000e+000
3.425307767150401e-004	-3.501495e-001	-1.000000e+000
3.426566758258087e-004	-3.497737e-001	-1.000000e+000
3.641306098524614e-004	-2.968251e-001	-1.000000e+000
3.856045438791141e-004	-2.449963e-001	-1.000000e+000
4.070784779057668e-004	-1.942871e-001	-1.000000e+000
4.285524119324195e-004	-1.446977e-001	-1.000000e+000
4.500263459590721e-004	-9.622793e-002	-1.000000e+000
4.715002799857248e-004	-4.887792e-002	-1.000000e+000
4.929742140123775e-004	-2.647623e-003	-1.000000e+000
5.076226515123780e-004	2.831834e-002	-1.000000e+000
5.222710890123786e-004	5.880550e-002	-1.000000e+000
5.369195265123791e-004	8.882124e-002	-1.000000e+000
5.662164015123802e-004	1.474676e-001	-1.000000e+000
5.955132765123813e-004	2.043142e-001	-1.000000e+000
6.422126137027931e-004	2.914448e-001	-1.000000e+000
6.449999999999997e-004	2.965008e-001	-1.000000e+000
6.450186703371146e-004	2.981175e-001	-9.925318e-001
6.450560110113426e-004	3.001837e-001	-9.775956e-001
6.450906238958335e-004	3.009338e-001	-9.637504e-001
6.451104572317203e-004	3.010187e-001	-9.558171e-001
6.451416527024825e-004	3.009773e-001	-9.433389e-001
6.451874306266404e-004	3.006695e-001	-9.250277e-001
6.452288414870357e-004	3.003530e-001	-9.084634e-001
6.452789253548839e-004	3.001290e-001	-8.884299e-001
6.453527742638198e-004	3.000510e-001	-8.588903e-001
6.454357650462605e-004	3.001865e-001	-8.256940e-001
6.456414939924136e-004	3.007263e-001	-7.434024e-001
6.458655139725388e-004	3.012222e-001	-6.537944e-001
6.462534136682727e-004	3.018709e-001	-4.986345e-001
6.466404845649337e-004	3.021575e-001	-3.438062e-001
6.470020019221524e-004	3.022378e-001	-1.991992e-001
6.474076444283813e-004	3.022038e-001	-3.694223e-002
6.480987789551362e-004	3.018033e-001	2.395116e-001
6.487928802401070e-004	3.009404e-001	5.171521e-001
6.491114437823485e-004	3.001968e-001	6.445775e-001
6.494016113551965e-004	2.993791e-001	7.606446e-001
6.497366389561204e-004	2.984825e-001	8.946556e-001
6.500000000000013e-004	2.977055e-001	1.000000e+000
6.500026630394847e-004	2.973534e-001	1.000000e+000
6.500079891184514e-004	2.966747e-001	1.000000e+000
6.500186412763832e-004	2.955227e-001	1.000000e+000
6.500325504586197e-004	2.945267e-001	1.000000e+000
6.500519869054294e-004	2.938309e-001	1.000000e+000
6.500673117359988e-004	2.935506e-001	1.000000e+000
6.500879662763425e-004	2.932890e-001	1.000000e+000
6.501117764035006e-004	2.931639e-001	1.000000e+000
6.501464732954505e-004	2.933084e-001	1.000000e+000
6.501790305615436e-004	2.935706e-001	1.000000e+000
6.502218508194681e-004	2.938842e-001	1.000000e+000
6.502867674657350e-004	2.941301e-001	1.000000e+000
6.504166007582704e-004	2.940826e-001	1.000000e+000
6.505321510575698e-004	2.937782e-001	1.000000e+000
6.506585120935968e-004	2.934089e-001	1.000000e+000
6.699631775224941e-004	2.468918e-001	1.000000e+000
6.892678429513913e-004	2.012628e-001	1.000000e+000
7.085725083802886e-004	1.565221e-001	1.000000e+000
7.278771738091858e-004	1.126695e-001	1.000000e+000
7.471818392380831e-004	6.970516e-002	1.000000e+000
7.664865046669803e-004	2.762899e-002	1.000000e+000
7.857911700958776e-004	-1.355900e-002	1.000000e+000
8.004396075958781e-004	-4.427437e-002	1.000000e+000
8.150880450958787e-004	-7.451481e-002	1.000000e+000
8.443849200958798e-004	-1.336001e-001	1.000000e+000
8.736817950958809e-004	-1.908723e-001	1.000000e+000
9.176271075958826e-004	-2.735024e-001	1.000000e+000
9.573518924010302e-004	-3.450334e-001	1.000000e+000
9.620000000000011e-004	-3.532023e-001	1.000000e+000
9.620316631061242e-004	-3.552258e-001	9.873347e-001
9.620949893183704e-004	-3.575109e-001	9.620042e-001
9.621262628558992e-004	-3.577716e-001	9.494948e-001
9.621515808612615e-004	-3.576433e-001	9.393677e-001
9.621852415224313e-004	-3.574323e-001	9.259034e-001
9.622517008856420e-004	-3.569582e-001	8.993196e-001
9.623047082810508e-004	-3.567475e-001	8.781167e-001
9.623681969731009e-004	-3.567476e-001	8.527212e-001
9.624934067528190e-004	-3.570104e-001	8.026373e-001
9.629999036096081e-004	-3.581547e-001	6.000385e-001
9.632581326621086e-004	-3.585553e-001	4.967469e-001
9.635813712305999e-004	-3.587472e-001	3.674515e-001
9.638918014720742e-004	-3.588158e-001	2.432794e-001
9.642063862085118e-004	-3.588162e-001	1.174455e-001
9.648355556813853e-004	-3.585410e-001	-1.342223e-001
9.654167696324188e-004	-3.579367e-001	-3.667079e-001
9.662215039347825e-004	-3.564476e-001	-6.886016e-001
9.662528634123233e-004	-3.563060e-001	-7.011454e-001
9.663155823674049e-004	-3.559863e-001	-7.262329e-001
9.663778089403947e-004	-3.558089e-001	-7.511235e-001
9.665770505942126e-004	-3.553446e-001	-8.308203e-001
9.669055154660593e-004	-3.544025e-001	-9.622062e-001
9.670000000000008e-004	-3.541274e-001	-1.000000e+000
9.670018551356189e-004	-3.538822e-001	-1.000000e+000
9.670055654068567e-004	-3.533906e-001	-1.000000e+000
9.670129859493323e-004	-3.524901e-001	-1.000000e+000
9.670247680173705e-004	-3.514076e-001	-1.000000e+000
9.670411279226084e-004	-3.505265e-001	-1.000000e+000
9.670562189576567e-004	-3.501340e-001	-1.000000e+000
9.670732623439215e-004	-3.498635e-001	-1.000000e+000
9.670919597495921e-004	-3.496487e-001	-1.000000e+000
9.671225849871897e-004	-3.495738e-001	-1.000000e+000
9.671542034295939e-004	-3.497534e-001	-1.000000e+000
9.671897205311541e-004	-3.500467e-001	-1.000000e+000
9.672321519377681e-004	-3.503229e-001	-1.000000e+000
9.673170147509961e-004	-3.505519e-001	-1.000000e+000
9.674405195360947e-004	-3.504110e-001	-1.000000e+000
9.676706357698937e-004	-3.497396e-001	-1.000000e+000
9.894077731577545e-004	-2.961525e-001	-1.000000e+000
1.011144910545615e-003	-2.437114e-001	-1.000000e+000
1.032882047933476e-003	-1.924165e-001	-1.000000e+000
1.054619185321337e-003	-1.422676e-001	-1.000000e+000
1.076356322709198e-003	-9.326485e-002	-1.000000e+000
1.098093460097059e-003	-4.540819e-002	-1.000000e+000
1.119830597484920e-003	1.302372e-003	-1.000000e+000
1.134479034984920e-003	3.220726e-002	-1.000000e+000
1.149127472484921e-003	6.263428e-002	-1.000000e+000
1.178424347484922e-003	1.220842e-001	-1.000000e+000
1.207721222484923e-003	1.797098e-001	-1.000000e+000
1.216347140047371e-003	1.963385e-001	-1.000000e+000
1.224973057609818e-003	2.128219e-001	-1.000000e+000
1.233598975172266e-003	2.291602e-001	-1.000000e+000
1.242224892734713e-003	2.453533e-001	-1.000000e+000
1.250850810297161e-003	2.614012e-001	-1.000000e+000
1.259476727859609e-003	2.773038e-001	-1.000000e+000
1.268102645422056e-003	2.930613e-001	-1.000000e+000
1.270000000000000e-003	2.965056e-001	-1.000000e+000
1.270012577242753e-003	2.977938e-001	-9.949691e-001
1.270037731728258e-003	2.994816e-001	-9.849073e-001
1.270088040699266e-003	3.008963e-001	-9.647837e-001
1.270108854151504e-003	3.010569e-001	-9.564583e-001
1.270142351711197e-003	3.010181e-001	-9.430593e-001
1.270173382623667e-003	3.008099e-001	-9.306470e-001
1.270209870817675e-003	3.004816e-001	-9.160517e-001
1.270257318613022e-003	3.001943e-001	-8.970726e-001
1.270310684953271e-003	3.000480e-001	-8.757260e-001
1.270384012617571e-003	3.000794e-001	-8.463950e-001
1.270486909345347e-003	3.003254e-001	-8.052363e-001
1.270750179085796e-003	3.009737e-001	-6.999283e-001
1.271057181008884e-003	3.015377e-001	-5.771276e-001
1.271671184855060e-003	3.021125e-001	-3.315261e-001
1.272325727382050e-003	3.022036e-001	-6.970905e-002
1.272724395329347e-003	3.021377e-001	8.975814e-002
1.273032923974418e-003	3.019348e-001	2.131696e-001
1.273281102370126e-003	3.017162e-001	3.124410e-001
1.273540454008961e-003	3.014589e-001	4.161816e-001
1.273800494415080e-003	3.010090e-001	5.201977e-001
1.274086289176074e-003	3.002678e-001	6.345156e-001
1.274374602416301e-003	2.994552e-001	7.498410e-001
1.274657721916768e-003	2.986887e-001	8.630888e-001
1.275000000000000e-003	2.977105e-001	1.000000e+000
1.275003058633446e-003	2.973055e-001	1.000000e+000
1.275009175900337e-003	2.965409e-001	1.000000e+000
1.275021410434120e-003	2.952936e-001	1.000000e+000
1.275036954792180e-003	2.943113e-001	1.000000e+000
1.275057907585923e-003	2.936998e-001	1.000000e+000
1.275075621927703e-003	2.934248e-001	1.000000e+000
1.275095552041222e-003	2.932236e-001	1.000000e+000
1.275125113641314e-003	2.931767e-001	1.000000e+000
1.275155513038419e-003	2.933688e-001	1.000000e+000
1.275190344423560e-003	2.936645e-001	1.000000e+000
1.275231450007667e-003	2.939358e-001	1.000000e+000
1.275313661175878e-003	2.941573e-001	1.000000e+000
1.275457641621888e-003	2.939873e-001	1.000000e+000
1.275695792753372e-003	2.933128e-001	1.000000e+000
1.295424514135740e-003	2.457908e-001	1.000000e+000
1.315153235518109e-003	1.991945e-001	1.000000e+000
1.334881956900477e-003	1.535240e-001	1.000000e+000
1.354610678282846e-003	1.087791e-001	1.000000e+000
1.374339399665214e-003	6.495999e-002	1.000000e+000
1.394068121047582e-003	2.206657e-002	1.000000e+000
1.413796842429951e-003	-1.990114e-002	1.000000e+000
1.428445279929951e-003	-5.051845e-002	1.000000e+000
1.443093717429952e-003	-8.066233e-002	1.000000e+000
1.472390592429953e-003	-1.395590e-001	1.000000e+000
1.501687467429954e-003	-1.966484e-001	1.000000e+000
1.545632779929956e-003	-2.790146e-001	1.000000e+000
1.587000000000000e-003	-3.532065e-001	1.000000e+000
1.587031709775132e-003	-3.552283e-001	9.873161e-001
1.587095129325396e-003	-3.575111e-001	9.619483e-001
1.587126443437635e-003	-3.577716e-001	9.494226e-001
1.587151824701970e-003	-3.576428e-001	9.392701e-001
1.587185553031422e-003	-3.574307e-001	9.257788e-001
1.587251879652186e-003	-3.569581e-001	8.992481e-001
1.587305098360487e-003	-3.567476e-001	8.779607e-001
1.587368689431275e-003	-3.567484e-001	8.525242e-001
1.587493178336522e-003	-3.570101e-001	8.027287e-001
1.588001318663358e-003	-3.581579e-001	5.994725e-001
1.588259482008636e-003	-3.585576e-001	4.962072e-001
1.588581266891530e-003	-3.587476e-001	3.674932e-001
1.588890241178224e-003	-3.588163e-001	2.439035e-001
1.589201817894959e-003	-3.588181e-001	1.192728e-001
1.589824971328426e-003	-3.585476e-001	-1.299885e-001
1.590417041724300e-003	-3.579342e-001	-3.668167e-001
1.591222040907605e-003	-3.564743e-001	-6.888164e-001
1.591244419417999e-003	-3.563596e-001	-6.977678e-001
1.591289176438786e-003	-3.560862e-001	-7.156706e-001
1.591347757839173e-003	-3.558872e-001	-7.391031e-001
1.591511765264163e-003	-3.555079e-001	-8.047061e-001
1.591830483643530e-003	-3.546251e-001	-9.321935e-001
1.592000000000000e-003	-3.541180e-001	-1.000000e+000
1.592002189103270e-003	-3.538265e-001	-1.000000e+000
1.592006567309809e-003	-3.532522e-001	-1.000000e+000
1.592015323722888e-003	-3.522347e-001	-1.000000e+000
1.592027878126220e-003	-3.511937e-001	-1.000000e+000
1.592045625643225e-003	-3.503862e-001	-1.000000e+000
1.592059777298469e-003	-3.500694e-001	-1.000000e+000
1.592078405798707e-003	-3.497915e-001	-1.000000e+000
1.592097869689547e-003	-3.496141e-001	-1.000000e+000
1.592136797471224e-003	-3.496464e-001	-1.000000e+000
1.592172018875217e-003	-3.498922e-001	-1.000000e+000
1.592220890930945e-003	-3.502722e-001	-1.000000e+000
1.592266775039533e-003	-3.504940e-001	-1.000000e+000
1.592358543256706e-003	-3.505665e-001	-1.000000e+000
1.592469773194433e-003	-3.503290e-001	-1.000000e+000
1.592596795140299e-003	-3.499434e-001	-1.000000e+000
1.592724676281306e-003	-3.495968e-001	-1.000000e+000
1.594994323623219e-003	-3.439375e-001	-1.000000e+000
1.597263970965132e-003	-3.382933e-001	-1.000000e+000
1.599533618307046e-003	-3.326642e-001	-1.000000e+000
1.601803265648959e-003	-3.270500e-001	-1.000000e+000
1.604072912990872e-003	-3.214509e-001	-1.000000e+000
1.606342560332786e-003	-3.158667e-001	-1.000000e+000
1.608612207674699e-003	-3.102976e-001	-1.000000e+000
1.652313730167320e-003	-2.054185e-001	-1.000000e+000
1.681610605167321e-003	-1.377431e-001	-1.000000e+000
1.710907480167322e-003	-7.214449e-002	-1.000000e+000
1.725555917667323e-003	-4.010393e-002	-1.000000e+000
1.740204355167323e-003	-8.558793e-003	-1.000000e+000
1.754852792667324e-003	2.249857e-002	-1.000000e+000
1.769501230167324e-003	5.307572e-002	-1.000000e+000
1.784149667667325e-003	8.318006e-002	-1.000000e+000
1.813446542667326e-003	1.419995e-001	-1.000000e+000
1.842743417667327e-003	1.990140e-001	-1.000000e+000
1.890351562499998e-003	2.880484e-001	-1.000000e+000
1.894999999999999e-003	2.965097e-001	-1.000000e+000
1.895031785515972e-003	2.985309e-001	-9.872858e-001
1.895095356547917e-003	3.008146e-001	-9.618574e-001
1.895126809766969e-003	3.010762e-001	-9.492761e-001
1.895152277186356e-003	3.009471e-001	-9.390891e-001
1.895186154446185e-003	3.007351e-001	-9.255382e-001
1.895253477757047e-003	3.002633e-001	-8.986089e-001
1.895307428833076e-003	3.000591e-001	-8.770285e-001
1.895371706169871e-003	3.000697e-001	-8.513175e-001
1.895495099590760e-003	3.003413e-001	-8.019602e-001
1.895802573992654e-003	3.010887e-001	-6.789704e-001
1.896010815244122e-003	3.015346e-001	-5.956739e-001
1.896268336299150e-003	3.019422e-001	-4.926655e-001
1.896587981854552e-003	3.021415e-001	-3.648072e-001
1.896892883794951e-003	3.022290e-001	-2.428465e-001
1.897190672318357e-003	3.022526e-001	-1.237311e-001
1.897786249365168e-003	3.020262e-001	1.144997e-001
1.898487329634052e-003	3.013466e-001	3.949319e-001
1.899185672288410e-003	3.001973e-001	6.742689e-001
1.899186295453062e-003	3.001903e-001	6.745182e-001
1.899187541782366e-003	3.001703e-001	6.750167e-001
1.899190034440973e-003	3.001429e-001	6.760138e-001
1.899195019758188e-003	3.000909e-001	6.780079e-001
1.899203962052643e-003	3.000090e-001	6.815848e-001
1.899221846641553e-003	2.998887e-001	6.887386e-001
1.899257615819374e-003	2.997295e-001	7.030463e-001
1.899321107817755e-003	2.995322e-001	7.284431e-001
1.899516942874678e-003	2.990756e-001	8.067772e-001
1.899677121549833e-003	2.986537e-001	8.708486e-001
1.899684684849403e-003	2.986338e-001	8.738739e-001
1.899714938047683e-003	2.985488e-001	8.859752e-001
1.899838649609173e-003	2.981895e-001	9.354599e-001
1.899844047145913e-003	2.981740e-001	9.376189e-001
1.899919612660280e-003	2.979548e-001	9.678451e-001
1.900000000000001e-003	2.977216e-001	1.000000e+000
1.900001806547265e-003	2.974822e-001	1.000000e+000
1.900005419641793e-003	2.970035e-001	1.000000e+000
1.900012645830848e-003	2.961297e-001	1.000000e+000
1.900025139668039e-003	2.949845e-001	1.000000e+000
1.900041147038480e-003	2.941236e-001	1.000000e+000
1.900056242074852e-003	2.937354e-001	1.000000e+000
1.900073299069022e-003	2.934653e-001	1.000000e+000
1.900092031357983e-003	2.932517e-001	1.000000e+000
1.900122719307099e-003	2.931797e-001	1.000000e+000
1.900154388883373e-003	2.933620e-001	1.000000e+000
1.900189994228071e-003	2.936582e-001	1.000000e+000
1.900232517532753e-003	2.939368e-001	1.000000e+000
1.900317564142117e-003	2.941695e-001	1.000000e+000
1.900440936152019e-003	2.940344e-001	1.000000e+000
1.900670981783502e-003	2.933770e-001	1.000000e+000
1.920368998041533e-003	2.459248e-001	1.000000e+000
1.940067014299565e-003	1.993960e-001	1.000000e+000
