time	V(vin)	V(vout)
0.000000000000000e+000	3.333333e-001	-6.977399e-001
6.626674107142718e-006	3.775112e-001	-6.550055e-001
1.325334821428544e-005	4.216890e-001	-6.099945e-001
1.988002232142815e-005	4.658668e-001	-5.627067e-001
2.650669642857087e-005	5.100446e-001	-5.131422e-001
3.313337053571359e-005	5.542225e-001	-4.613009e-001
3.976004464285631e-005	5.984003e-001	-4.071830e-001
4.638671874999901e-005	6.425781e-001	-3.507883e-001
5.126953124999891e-005	6.751302e-001	-3.081908e-001
6.103515624999870e-005	7.402344e-001	-2.200534e-001
6.591796874999860e-005	7.727864e-001	-1.745930e-001
7.080078124999849e-005	8.053386e-001	-1.282555e-001
7.568359374999839e-005	8.378906e-001	-8.107720e-002
8.056640624999828e-005	8.704427e-001	-3.309325e-002
8.544921874999818e-005	9.029948e-001	1.566249e-002
9.033203124999807e-005	9.355469e-001	6.515739e-002
9.521484374999797e-005	9.680989e-001	1.153567e-001
9.999999999999983e-005	9.970462e-001	1.650705e-001
1.004882812500000e-004	9.967448e-001	1.701811e-001
1.014648437499999e-004	9.902344e-001	1.804515e-001
1.034179687499997e-004	9.772136e-001	2.010395e-001
1.073242187499997e-004	9.511719e-001	2.422557e-001
1.122070312499996e-004	9.186198e-001	2.936163e-001
1.170898437499995e-004	8.860677e-001	3.444873e-001
1.219726562499994e-004	8.535156e-001	3.945040e-001
1.268554687499993e-004	8.209636e-001	4.433436e-001
1.317382812499992e-004	7.884114e-001	4.907268e-001
1.366210937499991e-004	7.558594e-001	5.364132e-001
1.415039062499989e-004	7.233073e-001	5.801978e-001
1.463867187499988e-004	6.907552e-001	6.219072e-001
1.512695312499987e-004	6.582031e-001	6.613969e-001
1.561523437499986e-004	6.256511e-001	6.985475e-001
1.610351562499985e-004	5.930989e-001	7.332631e-001
1.659179687499984e-004	5.605469e-001	7.654684e-001
1.708007812499983e-004	5.279948e-001	7.951061e-001
1.756835937499982e-004	4.954427e-001	8.221354e-001
1.854492187499980e-004	4.303385e-001	8.682778e-001
1.952148437499978e-004	3.652344e-001	9.038323e-001
2.049804687499976e-004	3.001302e-001	9.288967e-001
2.147460937499974e-004	2.350260e-001	9.436927e-001
2.196289062499973e-004	2.024740e-001	9.473351e-001
2.245117187499972e-004	1.699219e-001	9.485340e-001
2.293945312499971e-004	1.373698e-001	9.473387e-001
2.342773437499970e-004	1.048177e-001	9.438016e-001
2.391601562499969e-004	7.226563e-002	9.379777e-001
2.440429687499968e-004	3.971354e-002	9.299233e-001
2.538085937499966e-004	-2.539063e-002	9.073564e-001
2.635742187499963e-004	-9.049479e-002	8.765758e-001
2.733398437499961e-004	-1.555990e-001	8.380623e-001
2.831054687499959e-004	-2.207031e-001	7.922954e-001
2.928710937499957e-004	-2.858073e-001	7.397466e-001
2.977539062499956e-004	-3.183594e-001	7.110730e-001
3.026367187499955e-004	-3.509115e-001	6.808747e-001
3.075195312499954e-004	-3.834635e-001	6.492066e-001
3.124023437499953e-004	-4.160156e-001	6.161222e-001
3.172851562499952e-004	-4.485677e-001	5.816741e-001
3.221679687499951e-004	-4.811198e-001	5.459132e-001
3.270507812499950e-004	-5.136719e-001	5.088895e-001
3.319335937499949e-004	-5.462239e-001	4.706513e-001
3.368164062499948e-004	-5.787761e-001	4.312457e-001
3.416992187499947e-004	-6.113281e-001	3.907186e-001
3.465820312499946e-004	-6.438802e-001	3.491143e-001
3.514648437499945e-004	-6.764323e-001	3.064758e-001
3.612304687499943e-004	-7.415364e-001	2.182615e-001
3.661132812499942e-004	-7.740886e-001	1.727649e-001
3.709960937499941e-004	-8.066406e-001	1.263927e-001
3.758789062499940e-004	-8.391927e-001	7.918119e-002
3.807617187499938e-004	-8.717448e-001	3.116541e-002
3.856445312499937e-004	-9.042969e-001	-1.762082e-002
3.905273437499936e-004	-9.368489e-001	-6.714494e-002
3.999999999999998e-004	-1.000000e+000	-1.650476e-001
4.014648437499998e-004	-9.902344e-001	-1.804451e-001
4.034179687499996e-004	-9.772136e-001	-2.010332e-001
4.073242187499996e-004	-9.511719e-001	-2.422496e-001
4.122070312499995e-004	-9.186198e-001	-2.936105e-001
4.170898437499994e-004	-8.860677e-001	-3.444817e-001
4.219726562499993e-004	-8.535156e-001	-3.944986e-001
4.268554687499992e-004	-8.209636e-001	-4.433385e-001
4.317382812499991e-004	-7.884114e-001	-4.907219e-001
4.366210937499990e-004	-7.558594e-001	-5.364085e-001
4.415039062499989e-004	-7.233073e-001	-5.801933e-001
4.463867187499988e-004	-6.907552e-001	-6.219029e-001
4.512695312499987e-004	-6.582031e-001	-6.613927e-001
4.561523437499986e-004	-6.256511e-001	-6.985435e-001
4.610351562499985e-004	-5.930989e-001	-7.332594e-001
4.659179687499983e-004	-5.605469e-001	-7.654648e-001
4.708007812499982e-004	-5.279948e-001	-7.951026e-001
4.756835937499981e-004	-4.954427e-001	-8.221322e-001
4.854492187499979e-004	-4.303385e-001	-8.682749e-001
4.952148437499977e-004	-3.652344e-001	-9.038296e-001
5.049804687499975e-004	-3.001302e-001	-9.288942e-001
5.147460937499973e-004	-2.350260e-001	-9.436904e-001
5.196289062499972e-004	-2.024740e-001	-9.473330e-001
5.245117187499971e-004	-1.699219e-001	-9.485319e-001
5.293945312499970e-004	-1.373698e-001	-9.473367e-001
5.342773437499969e-004	-1.048177e-001	-9.437998e-001
5.391601562499968e-004	-7.226563e-002	-9.379759e-001
5.440429687499967e-004	-3.971354e-002	-9.299216e-001
5.538085937499965e-004	2.539063e-002	-9.073548e-001
5.635742187499963e-004	9.049479e-002	-8.765743e-001
5.733398437499961e-004	1.555990e-001	-8.380610e-001
5.831054687499958e-004	2.207031e-001	-7.922942e-001
5.928710937499956e-004	2.858073e-001	-7.397456e-001
5.977539062499955e-004	3.183594e-001	-7.110720e-001
6.026367187499954e-004	3.509115e-001	-6.808738e-001
6.075195312499953e-004	3.834635e-001	-6.492057e-001
6.124023437499952e-004	4.160156e-001	-6.161214e-001
6.172851562499951e-004	4.485677e-001	-5.816733e-001
6.221679687499950e-004	4.811198e-001	-5.459124e-001
6.270507812499949e-004	5.136719e-001	-5.088887e-001
6.319335937499948e-004	5.462239e-001	-4.706506e-001
6.368164062499947e-004	5.787761e-001	-4.312450e-001
6.416992187499946e-004	6.113281e-001	-3.907180e-001
6.465820312499945e-004	6.438802e-001	-3.491137e-001
6.514648437499944e-004	6.764323e-001	-3.064752e-001
6.612304687499942e-004	7.415364e-001	-2.182609e-001
6.661132812499941e-004	7.740886e-001	-1.727644e-001
6.709960937499940e-004	8.066406e-001	-1.263922e-001
6.758789062499939e-004	8.391927e-001	-7.918073e-002
6.807617187499938e-004	8.717448e-001	-3.116497e-002
6.856445312499937e-004	9.042969e-001	1.762124e-002
6.905273437499936e-004	9.368489e-001	6.714533e-002
6.999999999999997e-004	1.000000e+000	1.650480e-001
7.014648437499997e-004	9.902344e-001	1.804455e-001
7.034179687499995e-004	9.772136e-001	2.010336e-001
7.073242187499995e-004	9.511719e-001	2.422500e-001
7.122070312499994e-004	9.186198e-001	2.936108e-001
7.170898437499993e-004	8.860677e-001	3.444820e-001
7.219726562499992e-004	8.535156e-001	3.944989e-001
7.268554687499991e-004	8.209636e-001	4.433388e-001
7.317382812499990e-004	7.884114e-001	4.907221e-001
7.366210937499989e-004	7.558594e-001	5.364088e-001
7.415039062499988e-004	7.233073e-001	5.801935e-001
7.463867187499987e-004	6.907552e-001	6.219032e-001
7.512695312499986e-004	6.582031e-001	6.613929e-001
7.561523437499985e-004	6.256511e-001	6.985438e-001
7.610351562499984e-004	5.930989e-001	7.332596e-001
7.659179687499983e-004	5.605469e-001	7.654650e-001
7.708007812499982e-004	5.279948e-001	7.951028e-001
7.756835937499981e-004	4.954427e-001	8.221323e-001
7.854492187499979e-004	4.303385e-001	8.682750e-001
7.952148437499976e-004	3.652344e-001	9.038297e-001
8.049804687499974e-004	3.001302e-001	9.288943e-001
8.147460937499972e-004	2.350260e-001	9.436905e-001
8.196289062499971e-004	2.024740e-001	9.473331e-001
8.245117187499970e-004	1.699219e-001	9.485320e-001
8.293945312499969e-004	1.373698e-001	9.473368e-001
8.342773437499968e-004	1.048177e-001	9.437999e-001
8.391601562499967e-004	7.226563e-002	9.379759e-001
8.440429687499966e-004	3.971354e-002	9.299216e-001
8.538085937499964e-004	-2.539063e-002	9.073550e-001
8.635742187499962e-004	-9.049479e-002	8.765744e-001
8.733398437499960e-004	-1.555990e-001	8.380610e-001
8.831054687499958e-004	-2.207031e-001	7.922943e-001
8.928710937499956e-004	-2.858073e-001	7.397456e-001
8.977539062499955e-004	-3.183594e-001	7.110720e-001
9.026367187499954e-004	-3.509115e-001	6.808738e-001
9.075195312499952e-004	-3.834635e-001	6.492057e-001
9.124023437499951e-004	-4.160156e-001	6.161214e-001
9.172851562499950e-004	-4.485677e-001	5.816733e-001
9.221679687499949e-004	-4.811198e-001	5.459125e-001
9.270507812499948e-004	-5.136719e-001	5.088887e-001
9.319335937499947e-004	-5.462239e-001	4.706506e-001
9.368164062499946e-004	-5.787761e-001	4.312451e-001
9.416992187499945e-004	-6.113281e-001	3.907180e-001
9.465820312499944e-004	-6.438802e-001	3.491137e-001
9.514648437499943e-004	-6.764323e-001	3.064752e-001
9.612304687499941e-004	-7.415364e-001	2.182610e-001
9.661132812499940e-004	-7.740886e-001	1.727644e-001
9.709960937499939e-004	-8.066406e-001	1.263922e-001
9.758789062499938e-004	-8.391927e-001	7.918075e-002
9.807617187499937e-004	-8.717448e-001	3.116499e-002
9.856445312499936e-004	-9.042969e-001	-1.762122e-002
9.905273437499935e-004	-9.368489e-001	-6.714532e-002
9.999999999999996e-004	-1.000000e+000	-1.650480e-001
1.001464843750000e-003	-9.902344e-001	-1.804455e-001
1.003417968749999e-003	-9.772136e-001	-2.010336e-001
1.007324218749999e-003	-9.511719e-001	-2.422500e-001
1.012207031249999e-003	-9.186198e-001	-2.936108e-001
1.017089843749999e-003	-8.860677e-001	-3.444820e-001
1.021972656249999e-003	-8.535156e-001	-3.944989e-001
1.026855468749999e-003	-8.209636e-001	-4.433388e-001
1.031738281249999e-003	-7.884114e-001	-4.907221e-001
1.036621093749999e-003	-7.558594e-001	-5.364088e-001
1.041503906249999e-003	-7.233073e-001	-5.801935e-001
1.046386718749999e-003	-6.907552e-001	-6.219032e-001
1.051269531249999e-003	-6.582031e-001	-6.613929e-001
1.056152343749998e-003	-6.256511e-001	-6.985438e-001
1.061035156249998e-003	-5.930989e-001	-7.332596e-001
1.065917968749998e-003	-5.605469e-001	-7.654650e-001
1.070800781249998e-003	-5.279948e-001	-7.951028e-001
1.075683593749998e-003	-4.954427e-001	-8.221323e-001
1.085449218749998e-003	-4.303385e-001	-8.682750e-001
1.095214843749998e-003	-3.652344e-001	-9.038297e-001
1.104980468749997e-003	-3.001302e-001	-9.288943e-001
1.114746093749997e-003	-2.350260e-001	-9.436905e-001
1.119628906249997e-003	-2.024740e-001	-9.473331e-001
1.124511718749997e-003	-1.699219e-001	-9.485320e-001
1.129394531249997e-003	-1.373698e-001	-9.473368e-001
1.134277343749997e-003	-1.048177e-001	-9.437999e-001
1.139160156249997e-003	-7.226563e-002	-9.379759e-001
1.144042968749997e-003	-3.971354e-002	-9.299216e-001
1.153808593749996e-003	2.539063e-002	-9.073550e-001
1.163574218749996e-003	9.049479e-002	-8.765744e-001
1.173339843749996e-003	1.555990e-001	-8.380610e-001
1.183105468749996e-003	2.207031e-001	-7.922943e-001
1.192871093749996e-003	2.858073e-001	-7.397456e-001
1.197753906249995e-003	3.183594e-001	-7.110720e-001
1.202636718749995e-003	3.509115e-001	-6.808738e-001
1.207519531249995e-003	3.834635e-001	-6.492057e-001
1.212402343749995e-003	4.160156e-001	-6.161214e-001
1.217285156249995e-003	4.485677e-001	-5.816733e-001
1.222167968749995e-003	4.811198e-001	-5.459125e-001
1.227050781249995e-003	5.136719e-001	-5.088887e-001
1.231933593749995e-003	5.462239e-001	-4.706506e-001
1.236816406249995e-003	5.787761e-001	-4.312451e-001
1.241699218749994e-003	6.113281e-001	-3.907180e-001
1.246582031249994e-003	6.438802e-001	-3.491137e-001
1.251464843749994e-003	6.764323e-001	-3.064752e-001
1.261230468749994e-003	7.415364e-001	-2.182610e-001
1.266113281249994e-003	7.740886e-001	-1.727644e-001
1.270996093749994e-003	8.066406e-001	-1.263922e-001
1.275878906249994e-003	8.391927e-001	-7.918075e-002
1.280761718749994e-003	8.717448e-001	-3.116499e-002
1.285644531249994e-003	9.042969e-001	1.762122e-002
1.290527343749993e-003	9.368489e-001	6.714532e-002
1.300000000000000e-003	1.000000e+000	1.650480e-001
1.301464843750000e-003	9.902344e-001	1.804455e-001
1.303417968749999e-003	9.772136e-001	2.010336e-001
1.307324218749999e-003	9.511719e-001	2.422500e-001
1.312207031249999e-003	9.186198e-001	2.936108e-001
1.317089843749999e-003	8.860677e-001	3.444820e-001
1.321972656249999e-003	8.535156e-001	3.944989e-001
1.326855468749999e-003	8.209636e-001	4.433388e-001
1.331738281249999e-003	7.884114e-001	4.907221e-001
1.336621093749999e-003	7.558594e-001	5.364088e-001
1.341503906249999e-003	7.233073e-001	5.801935e-001
1.346386718749999e-003	6.907552e-001	6.219032e-001
1.351269531249998e-003	6.582031e-001	6.613929e-001
1.356152343749998e-003	6.256511e-001	6.985438e-001
1.361035156249998e-003	5.930989e-001	7.332596e-001
1.365917968749998e-003	5.605469e-001	7.654650e-001
1.370800781249998e-003	5.279948e-001	7.951028e-001
1.375683593749998e-003	4.954427e-001	8.221323e-001
1.385449218749998e-003	4.303385e-001	8.682750e-001
1.395214843749998e-003	3.652344e-001	9.038297e-001
1.404980468749997e-003	3.001302e-001	9.288943e-001
1.414746093749997e-003	2.350260e-001	9.436905e-001
1.419628906249997e-003	2.024740e-001	9.473331e-001
1.424511718749997e-003	1.699219e-001	9.485320e-001
1.429394531249997e-003	1.373698e-001	9.473368e-001
1.434277343749997e-003	1.048177e-001	9.437999e-001
1.439160156249997e-003	7.226563e-002	9.379759e-001
1.444042968749996e-003	3.971354e-002	9.299216e-001
1.453808593749996e-003	-2.539063e-002	9.073550e-001
1.463574218749996e-003	-9.049479e-002	8.765744e-001
1.473339843749996e-003	-1.555990e-001	8.380610e-001
1.483105468749996e-003	-2.207031e-001	7.922943e-001
1.492871093749995e-003	-2.858073e-001	7.397456e-001
1.497753906249995e-003	-3.183594e-001	7.110720e-001
1.502636718749995e-003	-3.509115e-001	6.808738e-001
1.507519531249995e-003	-3.834635e-001	6.492057e-001
1.512402343749995e-003	-4.160156e-001	6.161214e-001
1.517285156249995e-003	-4.485677e-001	5.816733e-001
1.522167968749995e-003	-4.811198e-001	5.459125e-001
1.527050781249995e-003	-5.136719e-001	5.088887e-001
1.531933593749995e-003	-5.462239e-001	4.706506e-001
1.536816406249995e-003	-5.787761e-001	4.312451e-001
1.541699218749994e-003	-6.113281e-001	3.907180e-001
1.546582031249994e-003	-6.438802e-001	3.491137e-001
1.551464843749994e-003	-6.764323e-001	3.064752e-001
1.561230468749994e-003	-7.415364e-001	2.182610e-001
1.566113281249994e-003	-7.740886e-001	1.727644e-001
1.570996093749994e-003	-8.066406e-001	1.263922e-001
1.575878906249994e-003	-8.391927e-001	7.918075e-002
1.580761718749994e-003	-8.717448e-001	3.116499e-002
1.585644531249993e-003	-9.042969e-001	-1.762122e-002
1.590527343749993e-003	-9.368489e-001	-6.714532e-002
1.599999999999999e-003	-1.000000e+000	-1.650480e-001
1.601464843750000e-003	-9.902344e-001	-1.804455e-001
1.603417968749999e-003	-9.772136e-001	-2.010336e-001
1.607324218749999e-003	-9.511719e-001	-2.422500e-001
1.612207031249999e-003	-9.186198e-001	-2.936108e-001
1.617089843749999e-003	-8.860677e-001	-3.444820e-001
1.621972656249999e-003	-8.535156e-001	-3.944989e-001
1.626855468749999e-003	-8.209636e-001	-4.433388e-001
1.631738281249999e-003	-7.884114e-001	-4.907221e-001
1.636621093749999e-003	-7.558594e-001	-5.364088e-001
1.641503906249999e-003	-7.233073e-001	-5.801935e-001
1.646386718749998e-003	-6.907552e-001	-6.219032e-001
1.651269531249998e-003	-6.582031e-001	-6.613929e-001
1.656152343749998e-003	-6.256511e-001	-6.985438e-001
1.661035156249998e-003	-5.930989e-001	-7.332596e-001
1.665917968749998e-003	-5.605469e-001	-7.654650e-001
1.670800781249998e-003	-5.279948e-001	-7.951028e-001
1.675683593749998e-003	-4.954427e-001	-8.221323e-001
1.685449218749998e-003	-4.303385e-001	-8.682750e-001
1.695214843749997e-003	-3.652344e-001	-9.038297e-001
1.704980468749997e-003	-3.001302e-001	-9.288943e-001
1.714746093749997e-003	-2.350260e-001	-9.436905e-001
1.719628906249997e-003	-2.024740e-001	-9.473331e-001
1.724511718749997e-003	-1.699219e-001	-9.485320e-001
1.729394531249997e-003	-1.373698e-001	-9.473368e-001
1.734277343749997e-003	-1.048177e-001	-9.437999e-001
1.739160156249997e-003	-7.226563e-002	-9.379759e-001
1.744042968749996e-003	-3.971354e-002	-9.299216e-001
1.753808593749996e-003	2.539063e-002	-9.073550e-001
1.763574218749996e-003	9.049479e-002	-8.765744e-001
1.773339843749996e-003	1.555990e-001	-8.380610e-001
1.783105468749996e-003	2.207031e-001	-7.922943e-001
1.792871093749995e-003	2.858073e-001	-7.397456e-001
1.797753906249995e-003	3.183594e-001	-7.110720e-001
1.802636718749995e-003	3.509115e-001	-6.808738e-001
1.807519531249995e-003	3.834635e-001	-6.492057e-001
1.812402343749995e-003	4.160156e-001	-6.161214e-001
1.817285156249995e-003	4.485677e-001	-5.816733e-001
1.822167968749995e-003	4.811198e-001	-5.459125e-001
1.827050781249995e-003	5.136719e-001	-5.088887e-001
1.831933593749995e-003	5.462239e-001	-4.706506e-001
1.836816406249994e-003	5.787761e-001	-4.312451e-001
1.841699218749994e-003	6.113281e-001	-3.907180e-001
1.846582031249994e-003	6.438802e-001	-3.491137e-001
1.851464843749994e-003	6.764323e-001	-3.064752e-001
1.861230468749994e-003	7.415364e-001	-2.182610e-001
1.866113281249994e-003	7.740886e-001	-1.727644e-001
1.870996093749994e-003	8.066406e-001	-1.263922e-001
1.875878906249994e-003	8.391927e-001	-7.918075e-002
1.880761718749993e-003	8.717448e-001	-3.116499e-002
1.885644531249993e-003	9.042969e-001	1.762122e-002
1.890527343749993e-003	9.368489e-001	6.714532e-002
1.899999999999999e-003	1.000000e+000	1.650480e-001
1.901464843749999e-003	9.902344e-001	1.804455e-001
1.903417968749999e-003	9.772136e-001	2.010336e-001
1.907324218749999e-003	9.511719e-001	2.422500e-001
1.912207031249999e-003	9.186198e-001	2.936108e-001
1.917089843749999e-003	8.860677e-001	3.444820e-001
1.921972656249999e-003	8.535156e-001	3.944989e-001
1.926855468749999e-003	8.209636e-001	4.433388e-001
1.931738281249999e-003	7.884114e-001	4.907221e-001
1.936621093749999e-003	7.558594e-001	5.364088e-001
1.941503906249999e-003	7.233073e-001	5.801935e-001
1.946386718749998e-003	6.907552e-001	6.219032e-001
1.951269531249998e-003	6.582031e-001	6.613929e-001
1.956152343749998e-003	6.256511e-001	6.985438e-001
1.961035156249998e-003	5.930989e-001	7.332596e-001
1.965917968749998e-003	5.605469e-001	7.654650e-001
1.970800781249998e-003	5.279948e-001	7.951028e-001
1.975683593749998e-003	4.954427e-001	8.221323e-001
1.985449218749998e-003	4.303385e-001	8.682750e-001
1.995214843749997e-003	3.652344e-001	9.038297e-001
2.004980468749997e-003	3.001302e-001	9.288943e-001
2.014746093749997e-003	2.350260e-001	9.436905e-001
2.019628906249997e-003	2.024740e-001	9.473331e-001
2.024511718749997e-003	1.699219e-001	9.485320e-001
2.029394531249997e-003	1.373698e-001	9.473368e-001
2.034277343749997e-003	1.048177e-001	9.437999e-001
2.039160156249996e-003	7.226563e-002	9.379759e-001
2.044042968749996e-003	3.971354e-002	9.299216e-001
2.053808593749996e-003	-2.539063e-002	9.073550e-001
2.063574218749996e-003	-9.049479e-002	8.765744e-001
2.073339843749996e-003	-1.555990e-001	8.380610e-001
2.083105468749995e-003	-2.207031e-001	7.922943e-001
2.092871093749995e-003	-2.858073e-001	7.397456e-001
2.097753906249995e-003	-3.183594e-001	7.110720e-001
2.102636718749995e-003	-3.509115e-001	6.808738e-001
2.107519531249995e-003	-3.834635e-001	6.492057e-001
2.112402343749995e-003	-4.160156e-001	6.161214e-001
2.117285156249995e-003	-4.485677e-001	5.816733e-001
2.122167968749995e-003	-4.811198e-001	5.459125e-001
2.127050781249995e-003	-5.136719e-001	5.088887e-001
2.131933593749994e-003	-5.462239e-001	4.706506e-001
2.136816406249994e-003	-5.787761e-001	4.312451e-001
2.141699218749994e-003	-6.113281e-001	3.907180e-001
2.146582031249994e-003	-6.438802e-001	3.491137e-001
2.151464843749994e-003	-6.764323e-001	3.064752e-001
2.161230468749994e-003	-7.415364e-001	2.182610e-001
2.166113281249994e-003	-7.740886e-001	1.727644e-001
2.170996093749994e-003	-8.066406e-001	1.263922e-001
2.175878906249994e-003	-8.391927e-001	7.918075e-002
2.180761718749993e-003	-8.717448e-001	3.116499e-002
2.185644531249993e-003	-9.042969e-001	-1.762122e-002
2.190527343749993e-003	-9.368489e-001	-6.714532e-002
2.200000000000000e-003	-1.000000e+000	-1.650480e-001
2.201464843750000e-003	-9.902344e-001	-1.804455e-001
