time	V(iterative)	V(recursive)
0.000000000000000e+000	1.759599e-017	-1.771107e-017
7.142857124823165e-008	8.105619e-007	4.607864e-007
1.428571424964633e-007	3.749570e-007	1.642009e-007
2.142857137446950e-007	-1.306815e-006	-8.897566e-007
2.857142849929266e-007	-4.234753e-006	-2.701086e-006
3.571428562411582e-007	-8.408859e-006	-5.269787e-006
4.285714274893899e-007	-1.382913e-005	-8.595860e-006
4.999999987376214e-007	-2.049557e-005	-1.267931e-005
9.999999974752427e-007	-1.266118e-004	-6.208622e-005
1.928321704140106e-006	-4.523208e-004	-1.633426e-004
3.237168374022483e-006	-1.002790e-003	-2.673641e-004
1.889100425622486e-005	-7.881414e-003	-1.248710e-003
3.524273616756854e-005	-1.505449e-002	-2.261770e-003
6.794619999025590e-005	-2.931713e-002	-4.224814e-003
1.167743249902559e-004	-5.034494e-002	-6.954214e-003
1.656024499902559e-004	-7.090141e-002	-9.329192e-003
2.144305749902559e-004	-9.076844e-002	-1.118778e-002
2.632586999902559e-004	-1.097573e-001	-1.239189e-002
3.120868249902559e-004	-1.276913e-001	-1.281458e-002
3.609149499902559e-004	-1.444079e-001	-1.234225e-002
4.097430749902559e-004	-1.597609e-001	-1.087665e-002
4.585711999902559e-004	-1.736227e-001	-8.336582e-003
5.073993249902559e-004	-1.858855e-001	-4.659462e-003
5.562274499902560e-004	-1.964630e-001	1.975293e-004
6.050555749902560e-004	-2.052913e-001	6.256527e-003
6.538836999902560e-004	-2.123296e-001	1.351841e-002
7.027118249902561e-004	-2.175605e-001	2.196256e-002
7.515399499902561e-004	-2.209904e-001	3.154695e-002
8.003680749902562e-004	-2.226488e-001	4.220855e-002
8.491961999902562e-004	-2.225878e-001	5.386411e-002
8.980243249902563e-004	-2.208811e-001	6.641120e-002
9.468524499902563e-004	-2.176229e-001	7.972962e-002
9.956805749902562e-004	-2.129262e-001	9.368300e-002
1.044508699990256e-003	-2.069208e-001	1.081208e-001
1.093336824990256e-003	-1.997515e-001	1.228803e-001
1.142164949990256e-003	-1.915757e-001	1.377890e-001
1.190993074990256e-003	-1.825609e-001	1.526675e-001
1.239821199990257e-003	-1.728822e-001	1.673313e-001
1.288649324990257e-003	-1.627195e-001	1.815943e-001
1.337477449990257e-003	-1.522547e-001	1.952713e-001
1.386305574990257e-003	-1.416694e-001	2.081804e-001
1.435133699990257e-003	-1.311414e-001	2.201463e-001
1.483961824990257e-003	-1.208428e-001	2.310028e-001
1.532789949990257e-003	-1.109367e-001	2.405949e-001
1.581618074990257e-003	-1.015756e-001	2.487817e-001
1.630446199990257e-003	-9.289832e-002	2.554383e-001
1.679274324990257e-003	-8.502872e-002	2.604579e-001
1.728102449990257e-003	-7.807349e-002	2.637534e-001
1.776930574990257e-003	-7.212075e-002	2.652586e-001
1.825758699990257e-003	-6.717470e-002	2.650355e-001
1.863518305458652e-003	-6.414558e-002	2.635402e-001
1.908231465732116e-003	-6.152400e-002	2.602028e-001
1.957059590732116e-003	-5.972360e-002	2.548668e-001
2.005887715732116e-003	-5.904017e-002	2.477763e-001
2.054715840732115e-003	-5.946729e-002	2.389579e-001
2.103543965732115e-003	-6.095374e-002	2.284995e-001
2.152372090732115e-003	-6.342888e-002	2.165102e-001
2.201200215732115e-003	-6.680384e-002	2.031186e-001
2.250028340732115e-003	-7.097314e-002	1.884716e-001
2.298856465732115e-003	-7.581651e-002	1.727318e-001
2.347684590732114e-003	-8.120090e-002	1.560758e-001
2.396512715732114e-003	-8.698271e-002	1.386916e-001
2.445340840732114e-003	-9.301029e-002	1.207759e-001
2.494168965732114e-003	-9.912636e-002	1.025317e-001
2.542997090732114e-003	-1.051707e-001	8.416512e-002
2.591825215732114e-003	-1.109829e-001	6.588285e-002
2.640653340732113e-003	-1.164047e-001	4.788921e-002
2.689481465732113e-003	-1.212832e-001	3.038331e-002
2.738309590732113e-003	-1.254728e-001	1.355637e-002
2.787137715732113e-003	-1.288381e-001	-2.410957e-003
2.835965840732113e-003	-1.312560e-001	-1.735100e-002
2.884793965732112e-003	-1.326178e-001	-3.111135e-002
2.933622090732112e-003	-1.328311e-001	-4.355692e-002
2.982450215732112e-003	-1.318216e-001	-5.457172e-002
3.031278340732112e-003	-1.295342e-001	-6.406036e-002
3.080106465732112e-003	-1.259944e-001	-7.202480e-002
3.120078601709180e-003	-1.221054e-001	-7.731432e-002
3.160670728607999e-003	-1.171528e-001	-8.141421e-002
3.209498853607999e-003	-1.100102e-001	-8.480856e-002
3.258326978607999e-003	-1.016649e-001	-8.660150e-002
3.307155103607999e-003	-9.212584e-002	-8.675591e-002
3.355983228607999e-003	-8.147786e-002	-8.532826e-002
3.404811353607999e-003	-6.982474e-002	-8.239637e-002
3.453639478607998e-003	-5.728804e-002	-7.805809e-002
3.502467603607998e-003	-4.400530e-002	-7.242970e-002
3.551295728607998e-003	-3.012816e-002	-6.564404e-002
3.600123853607998e-003	-1.582015e-002	-5.784839e-002
3.648951978607998e-003	-1.254334e-003	-4.920216e-002
3.697780103607998e-003	1.338919e-002	-3.987440e-002
3.746608228607997e-003	2.792595e-002	-3.004125e-002
3.795436353607997e-003	4.216982e-002	-1.988313e-002
3.844264478607997e-003	5.593577e-002	-9.582086e-003
3.893092603607997e-003	6.904267e-002	6.810225e-004
3.941920728607997e-003	8.131592e-002	1.072923e-002
3.990748853607997e-003	9.259018e-002	2.039214e-002
4.039576978607996e-003	1.027118e-001	2.950843e-002
4.088405103607996e-003	1.115413e-001	3.792828e-002
4.137233228607996e-003	1.189552e-001	4.551553e-002
4.186061353607996e-003	1.248485e-001	5.214973e-002
4.234889478607996e-003	1.291357e-001	5.772780e-002
4.283717603607995e-003	1.317526e-001	6.216554e-002
4.332545728607995e-003	1.327225e-001	6.544603e-002
4.374050367661050e-003	1.322112e-001	6.727412e-002
4.412147038690514e-003	1.305165e-001	6.805366e-002
4.460975163690514e-003	1.267934e-001	6.789716e-002
4.509803288690514e-003	1.214960e-001	6.655148e-002
4.558631413690514e-003	1.145950e-001	6.398077e-002
4.607459538690514e-003	1.061782e-001	6.023984e-002
4.656287663690513e-003	9.635410e-002	5.540299e-002
4.705115788690513e-003	8.525069e-002	4.956269e-002
4.753943913690513e-003	7.301379e-002	4.282798e-002
4.802772038690513e-003	5.980492e-002	3.532268e-002
4.851600163690513e-003	4.579915e-002	2.718328e-002
4.900428288690513e-003	3.118265e-002	1.855667e-002
4.949256413690512e-003	1.615011e-002	9.597776e-003
4.998084538690512e-003	9.020214e-004	4.669384e-004
5.046912663690512e-003	-1.435811e-002	-8.672663e-003
5.095740788690512e-003	-2.942660e-002	-1.765771e-002
5.144568913690512e-003	-4.410246e-002	-2.632740e-002
5.193397038690512e-003	-5.819018e-002	-3.452612e-002
5.242225163690511e-003	-7.150243e-002	-4.210597e-002
5.291053288690511e-003	-8.386272e-002	-4.892919e-002
5.339881413690511e-003	-9.510779e-002	-5.487050e-002
5.388709538690511e-003	-1.050899e-001	-5.981914e-002
5.437537663690511e-003	-1.136788e-001	-6.368075e-002
5.486365788690511e-003	-1.207636e-001	-6.637897e-002
5.535193913690510e-003	-1.262541e-001	-6.785680e-002
5.584022038690510e-003	-1.301385e-001	-6.811949e-002
5.626454122016710e-003	-1.321598e-001	-6.733675e-002
5.664867771791923e-003	-1.327463e-001	-6.571496e-002
5.713695896791922e-003	-1.319087e-001	-6.251258e-002
5.762524021791922e-003	-1.294487e-001	-5.816824e-002
5.811352146791922e-003	-1.253137e-001	-5.267708e-002
5.860180271791922e-003	-1.195658e-001	-4.612169e-002
5.909008396791922e-003	-1.122884e-001	-3.860361e-002
5.957836521791922e-003	-1.035850e-001	-3.024195e-002
6.006664646791921e-003	-9.357724e-002	-2.117162e-002
6.055492771791921e-003	-8.240335e-002	-1.154140e-002
6.104320896791921e-003	-7.021573e-002	-1.511763e-003
6.153149021791921e-003	-5.717875e-002	8.747530e-003
6.201977146791921e-003	-4.346623e-002	1.905994e-002
6.250805271791921e-003	-2.925884e-002	2.924479e-002
6.299633396791920e-003	-1.474135e-002	3.912001e-002
6.348461521791920e-003	-9.990806e-005	4.850487e-002
6.397289646791920e-003	1.448075e-002	5.722277e-002
6.446117771791920e-003	2.882002e-002	6.510390e-002
6.494945896791920e-003	4.274407e-002	7.198793e-002
6.543774021791919e-003	5.608837e-002	7.772639e-002
6.592602146791919e-003	6.870011e-002	8.218513e-002
6.641430271791919e-003	8.044034e-002	8.524635e-002
6.690258396791919e-003	9.118597e-002	8.681057e-002
6.739086521791919e-003	1.008315e-001	8.679815e-002
6.787914646791919e-003	1.092903e-001	8.515079e-002
6.836742771791918e-003	1.164960e-001	8.183244e-002
6.885570896791918e-003	1.224352e-001	7.687017e-002
6.929712005813367e-003	1.266375e-001	7.090663e-002
6.978540130813366e-003	1.299921e-001	6.270626e-002
7.027368255813366e-003	1.320702e-001	5.295644e-002
7.076196380813366e-003	1.328780e-001	4.169462e-002
7.125024505813366e-003	1.324736e-001	2.901976e-002
7.173852630813366e-003	1.309345e-001	1.505120e-002
7.222680755813365e-003	1.283558e-001	-7.292239e-005
7.271508880813365e-003	1.248487e-001	-1.619748e-002
7.320337005813365e-003	1.205384e-001	-3.315244e-002
7.369165130813365e-003	1.155620e-001	-5.075518e-002
7.417993255813365e-003	1.100666e-001	-6.881297e-002
7.466821380813365e-003	1.042061e-001	-8.712563e-002
7.515649505813364e-003	9.813928e-002	-1.054882e-001
7.564477630813364e-003	9.202669e-002	-1.236940e-001
7.613305755813364e-003	8.602827e-002	-1.415371e-001
7.662133880813364e-003	8.030055e-002	-1.588154e-001
7.710962005813364e-003	7.499409e-002	-1.753335e-001
7.759790130813364e-003	7.025089e-002	-1.909051e-001
7.808618255813363e-003	6.620210e-002	-2.053559e-001
7.857446380813364e-003	6.296576e-002	-2.185257e-001
7.906274505813365e-003	6.064476e-002	-2.302707e-001
7.955102630813365e-003	5.932513e-002	-2.404652e-001
8.003930755813366e-003	5.907445e-002	-2.490038e-001
8.052758880813367e-003	5.994068e-002	-2.558023e-001
8.101587005813368e-003	6.195122e-002	-2.607988e-001
8.150415130813368e-003	6.511228e-002	-2.639546e-001
8.199243255813369e-003	6.940863e-002	-2.652547e-001
8.248071380813370e-003	7.480369e-002	-2.647076e-001
8.296899505813370e-003	8.123984e-002	-2.623451e-001
8.345727630813371e-003	8.863924e-002	-2.582217e-001
8.394555755813372e-003	9.690480e-002	-2.524137e-001
8.443383880813372e-003	1.059216e-001	-2.450178e-001
8.492212005813373e-003	1.155584e-001	-2.361498e-001
8.541040130813374e-003	1.256696e-001	-2.259424e-001
8.589868255813375e-003	1.360975e-001	-2.145436e-001
8.638696380813375e-003	1.466745e-001	-2.021140e-001
8.687524505813376e-003	1.572252e-001	-1.888245e-001
8.736352630813377e-003	1.675700e-001	-1.748540e-001
8.785180755813377e-003	1.775266e-001	-1.603859e-001
8.834008880813378e-003	1.869138e-001	-1.456066e-001
8.882837005813379e-003	1.955536e-001	-1.307014e-001
8.931665130813379e-003	2.032741e-001	-1.158528e-001
8.980493255813380e-003	2.099123e-001	-1.012371e-001
9.029321380813381e-003	2.153166e-001	-8.702253e-002
9.078149505813381e-003	2.193488e-001	-7.336605e-002
9.126977630813382e-003	2.218868e-001	-6.041164e-002
9.175805755813383e-003	2.228265e-001	-4.828812e-002
9.224633880813384e-003	2.220830e-001	-3.710730e-002
9.273462005813384e-003	2.195927e-001	-2.696253e-002
9.322290130813385e-003	2.153966e-001	-1.787377e-002
9.362229063928387e-003	2.105785e-001	-1.132912e-002
9.407751902018379e-003	2.035088e-001	-4.911417e-003
9.456580027018380e-003	1.942561e-001	8.422238e-004
9.505408152018380e-003	1.832968e-001	5.418017e-003
9.554236277018381e-003	1.706696e-001	8.822532e-003
9.603064402018382e-003	1.564656e-001	1.110326e-002
9.651892527018383e-003	1.407971e-001	1.232722e-002
9.700720652018383e-003	1.237961e-001	1.257968e-002
9.749548777018384e-003	1.056125e-001	1.196264e-002
9.798376902018385e-003	8.641227e-002	1.059295e-002
9.847205027018385e-003	6.637495e-002	8.600350e-003
9.896033152018386e-003	4.569161e-002	6.125163e-003
9.944861277018387e-003	2.456203e-002	3.315923e-003
9.993689402018387e-003	3.192051e-003	3.268343e-004
1.004251752701839e-002	-1.820919e-002	-2.684845e-003
1.009134565201839e-002	-3.943216e-002	-5.561469e-003
1.014017377701839e-002	-6.026972e-002	-8.147677e-003
1.018900190201839e-002	-8.051999e-002	-1.029303e-002
1.023783002701839e-002	-9.998908e-002	-1.185458e-002
1.028665815201839e-002	-1.184937e-001	-1.269928e-002
1.033548627701839e-002	-1.358635e-001	-1.270634e-002
1.038431440201839e-002	-1.519438e-001	-1.176926e-002
1.043314252701839e-002	-1.665969e-001	-9.797772e-003
1.048197065201839e-002	-1.797046e-001	-6.719425e-003
1.053079877701840e-002	-1.911692e-001	-2.480974e-003
1.057962690201840e-002	-2.009989e-001	2.893868e-003
1.061929773223714e-002	-2.076729e-001	8.155720e-003
1.066038045009555e-002	-2.132017e-001	1.452720e-002
1.070920857509555e-002	-2.181203e-001	2.317320e-002
1.075803670009555e-002	-2.213123e-001	3.290500e-002
1.080686482509555e-002	-2.227384e-001	4.370408e-002
1.085569295009555e-002	-2.224537e-001	5.548457e-002
1.090452107509555e-002	-2.205348e-001	6.814159e-002
1.095334920009555e-002	-2.170783e-001	8.155268e-002
1.100217732509556e-002	-2.121996e-001	9.557949e-002
1.105100545009556e-002	-2.060307e-001	1.100697e-001
1.109983357509556e-002	-1.987182e-001	1.248592e-001
1.114866170009556e-002	-1.904209e-001	1.397744e-001
1.119748982509556e-002	-1.813076e-001	1.546350e-001
1.124631795009556e-002	-1.715540e-001	1.692562e-001
1.129514607509556e-002	-1.613405e-001	1.834519e-001
1.134397420009556e-002	-1.508494e-001	1.970370e-001
1.139280232509556e-002	-1.402615e-001	2.098306e-001
1.144163045009556e-002	-1.297543e-001	2.216583e-001
1.149045857509556e-002	-1.194987e-001	2.323552e-001
1.153928670009556e-002	-1.096566e-001	2.417681e-001
1.158811482509556e-002	-1.003787e-001	2.497581e-001
1.163694295009556e-002	-9.180215e-002	2.562027e-001
1.168577107509556e-002	-8.404846e-002	2.609975e-001
1.173459920009557e-002	-7.722194e-002	2.640581e-001
1.178342732509557e-002	-7.140818e-002	2.653214e-001
1.183225545009557e-002	-6.662916e-002	2.648182e-001
1.187357772413192e-002	-6.344575e-002	2.629660e-001
1.191197136451254e-002	-6.130612e-002	2.599213e-001
1.196079948951254e-002	-5.963115e-002	2.543865e-001
1.200962761451254e-002	-5.903414e-002	2.471610e-001
1.205845573951254e-002	-5.954446e-002	2.382136e-001
1.210728386451254e-002	-6.110938e-002	2.276338e-001
1.215611198951254e-002	-6.365679e-002	2.155323e-001
1.220494011451254e-002	-6.709652e-002	2.020392e-001
1.225376823951254e-002	-7.132189e-002	1.873025e-001
1.230259636451254e-002	-7.621156e-002	1.714861e-001
1.235142448951254e-002	-8.163157e-002	1.547676e-001
1.240025261451254e-002	-8.743766e-002	1.373356e-001
1.244908073951254e-002	-9.347763e-002	1.193876e-001
1.249790886451254e-002	-9.959389e-002	1.011266e-001
1.254673698951254e-002	-1.056261e-001	8.275922e-002
1.259556511451255e-002	-1.114139e-001	6.449189e-002
1.264439323951255e-002	-1.167995e-001	4.652865e-002
1.269322136451255e-002	-1.216303e-001	2.906811e-002
1.274204948951255e-002	-1.257614e-001	1.230077e-002
1.279087761451255e-002	-1.290583e-001	-3.593622e-003
1.283970573951255e-002	-1.313989e-001	-1.844849e-002
1.288853386451255e-002	-1.326758e-001	-3.211268e-002
1.293736198951255e-002	-1.327979e-001	-4.445252e-002
1.298619011451255e-002	-1.316922e-001	-5.535352e-002
1.303501823951255e-002	-1.293051e-001	-6.472195e-002
1.308384636451255e-002	-1.256480e-001	-7.254153e-002
1.312616808950254e-002	-1.214284e-001	-7.801398e-002
1.316440202072828e-002	-1.166725e-001	-8.175886e-002
1.321323014572829e-002	-1.094162e-001	-8.500430e-002
1.326205827072829e-002	-1.009771e-001	-8.667053e-002
1.331088639572829e-002	-9.135009e-002	-8.670178e-002
1.335971452072829e-002	-8.062139e-002	-8.515617e-002
1.340854264572829e-002	-6.889626e-002	-8.211312e-002
1.345737077072829e-002	-5.629750e-002	-7.767192e-002
1.350619889572829e-002	-4.296383e-002	-7.195022e-002
1.355502702072829e-002	-2.904786e-002	-6.508201e-002
1.360385514572829e-002	-1.471393e-002	-5.721560e-002
1.365268327072829e-002	-1.357482e-004	-4.851121e-002
1.370151139572829e-002	1.450616e-002	-3.913856e-002
1.375033952072829e-002	2.902711e-002	-2.927416e-002
1.379916764572829e-002	4.324096e-002	-1.909870e-002
1.384799577072829e-002	5.696288e-002	-8.794202e-003
1.389682389572829e-002	7.001213e-002	1.458663e-003
1.394565202072830e-002	8.221474e-002	1.148335e-002
1.399448014572830e-002	9.340619e-002	2.111004e-002
1.404330827072830e-002	1.034338e-001	3.017824e-002
1.409213639572830e-002	1.121592e-001	3.853907e-002
1.414096452072830e-002	1.194604e-001	4.605754e-002
1.418979264572830e-002	1.252337e-001	5.261444e-002
1.423862077072830e-002	1.293953e-001	5.810810e-002
1.428744889572830e-002	1.318825e-001	6.245579e-002
1.433627702072830e-002	1.326996e-001	6.562711e-002
1.438012558851448e-002	1.319822e-001	6.742907e-002
1.442084600168804e-002	1.299711e-001	6.811418e-002
1.446967412668804e-002	1.259702e-001	6.774890e-002
1.451850225168804e-002	1.203817e-001	6.618186e-002
1.456733037668804e-002	1.132036e-001	6.339808e-002
1.461615850168804e-002	1.045276e-001	5.945593e-002
1.466498662668805e-002	9.446566e-002	5.443304e-002
1.471381475168805e-002	8.314916e-002	4.842496e-002
1.476264287668805e-002	7.072686e-002	4.154352e-002
1.481147100168805e-002	5.736284e-002	3.391493e-002
1.486029912668805e-002	4.323436e-002	2.567771e-002
1.490912725168805e-002	2.852929e-002	1.698037e-002
1.495795537668805e-002	1.344354e-002	7.978991e-003
1.500678350168805e-002	-1.821631e-003	-1.165392e-003
1.505561162668805e-002	-1.706249e-002	-1.028938e-002
1.510443975168805e-002	-3.207563e-002	-1.922990e-002
1.515326787668805e-002	-4.666082e-002	-2.782689e-002
1.520209600168805e-002	-6.062382e-002	-3.592592e-002
1.525092412668805e-002	-7.377905e-002	-4.338073e-002
1.529975225168805e-002	-8.595219e-002	-5.005562e-002
1.534858037668806e-002	-9.698259e-002	-5.582774e-002
1.539740850168806e-002	-1.067255e-001	-6.058912e-002
1.544623662668806e-002	-1.150540e-001	-6.424851e-002
1.549506475168806e-002	-1.218607e-001	-6.673291e-002
1.554389287668806e-002	-1.270594e-001	-6.798889e-002
1.559272100168806e-002	-1.305858e-001	-6.798355e-002
1.564154912668806e-002	-1.324069e-001	-6.671122e-002
1.568944425189920e-002	-1.325029e-001	-6.422988e-002
1.573827237689920e-002	-1.308829e-001	-6.047368e-002
1.578710050189921e-002	-1.275735e-001	-5.554303e-002
1.583592862689921e-002	-1.226175e-001	-4.950467e-002
1.588475675189921e-002	-1.160880e-001	-4.245090e-002
1.593358487689921e-002	-1.080787e-001	-3.449231e-002
1.598241300189921e-002	-9.870254e-002	-2.575617e-002
1.603124112689921e-002	-8.808964e-002	-1.638466e-002
1.608006925189921e-002	-7.638567e-002	-6.532702e-003
1.612889737689921e-002	-6.374934e-002	3.634233e-003
1.617772550189921e-002	-5.035013e-002	1.394265e-002
1.622655362689921e-002	-3.636562e-002	2.421359e-002
1.627538175189921e-002	-2.197891e-002	3.426533e-002
1.632420987689921e-002	-7.375786e-003	4.391614e-002
1.637303800189921e-002	7.257961e-003	5.298701e-002
1.642186612689921e-002	2.173934e-002	6.130444e-002
1.647069425189921e-002	3.589081e-002	6.870306e-002
1.651952237689922e-002	4.954294e-002	7.502820e-002
1.656835050189922e-002	6.253681e-002	8.013833e-002
1.661717862689922e-002	7.472631e-002	8.390729e-002
1.666600675189922e-002	8.598026e-002	8.622625e-002
1.671483487689922e-002	9.618419e-002	8.700556e-002
1.676366300189922e-002	1.052420e-001	8.617614e-002
1.681249112689922e-002	1.130771e-001	8.369080e-002
1.686131925189922e-002	1.196521e-001	7.954855e-002
1.690741342583972e-002	1.246369e-001	7.407252e-002
1.695624155083972e-002	1.286094e-001	6.663396e-002
1.700506967583972e-002	1.312816e-001	5.760169e-002
1.705389780083972e-002	1.326635e-001	4.701936e-002
1.710272592583972e-002	1.328041e-001	3.497620e-002
1.715155405083972e-002	1.317725e-001	2.158239e-002
1.720038217583973e-002	1.296557e-001	6.967717e-003
1.724921030083973e-002	1.265578e-001	-8.720214e-003
1.729803842583973e-002	1.225979e-001	-2.531790e-002
1.734686655083973e-002	1.179080e-001	-4.264818e-002
1.739569467583973e-002	1.126309e-001	-6.052261e-002
1.744452280083973e-002	1.069177e-001	-7.874408e-002
1.749335092583973e-002	1.009252e-001	-9.710948e-002
1.754217905083973e-002	9.481357e-002	-1.154125e-001
1.759100717583973e-002	8.874334e-002	-1.334466e-001
1.763983530083973e-002	8.287290e-002	-1.510075e-001
1.768866342583973e-002	7.735587e-002	-1.678965e-001
1.773749155083973e-002	7.233846e-002	-1.839228e-001
1.778631967583973e-002	6.795707e-002	-1.989062e-001
1.783514780083973e-002	6.433598e-002	-2.126799e-001
1.788397592583974e-002	6.158524e-002	-2.250923e-001
1.793280405083974e-002	5.979878e-002	-2.360092e-001
